
T3064 000:454 SEGGER J-Link V4.80g Log File (0001ms, 0289ms total)
T3064 000:454 DLL Compiled: Feb 13 2014 20:50:02 (0001ms, 0289ms total)
T3064 000:454 Logging started @ 2018-02-02 11:01 (0001ms, 0289ms total)
T3064 000:455 JLINK_SetWarnOutHandler(...) (0000ms, 0289ms total)
T3064 000:456 JLINK_OpenEx(...)
Firmware: J-Link V9 compiled Sep  1 2016 18:29:50
Hardware: V9.20
S/N: 59820251
Feature(s): RDI, FlashBP, FlashDL, JFlash, GDB  returns O.K. (0277ms, 0567ms total)
T3064 000:735 JLINK_SetErrorOutHandler(...) (0000ms, 0567ms total)
T3064 000:735 JLINK_ExecCommand("ProjectFile = "C:\Users\FES\Desktop\Researching\DSP_Projects_test\DSP_Project_from_lxx_lxd\Demo\Project\JLinkSettings.ini"", ...)  returns 0x00 (0002ms, 0569ms total)
T3064 000:752 JLINK_ExecCommand("Device = STM32F103ZE", ...)Device "STM32F103ZE" selected (512 KB flash, 64 KB RAM).  returns 0x00 (0006ms, 0576ms total)
T3064 000:759 JLINK_ExecCommand("DisableConnectionTimeout", ...)  returns 0x01 (0000ms, 0576ms total)
T3064 000:759 JLINK_GetHardwareVersion()  returns 0x16760 (0000ms, 0576ms total)
T3064 000:759 JLINK_GetDLLVersion()  returns 48007 (0000ms, 0576ms total)
T3064 000:759 JLINK_GetFirmwareString(...) (0000ms, 0576ms total)
T3064 000:768 JLINK_GetDLLVersion()  returns 48007 (0000ms, 0576ms total)
T3064 000:768 JLINK_GetCompileDateTime() (0000ms, 0576ms total)
T3064 000:771 JLINK_GetFirmwareString(...) (0000ms, 0576ms total)
T3064 000:774 JLINK_GetHardwareVersion()  returns 0x16760 (0000ms, 0576ms total)
T3064 000:785 JLINK_TIF_Select(JLINKARM_TIF_JTAG)  returns 0x00 (0006ms, 0582ms total)
T3064 000:791 JLINK_SetSpeed(2000) (0002ms, 0584ms total)
T3064 000:793 JLINK_GetIdData(...) >0x2F8 JTAG>TotalIRLen = 9, IRPrint = 0x0011 >0x30 JTAG> >0x210 JTAG> >0x40 JTAG> >0x40 JTAG> >0x40 JTAG> >0x30 JTAG> >0x40 JTAG> >0x40 JTAG> >0x40 JTAG> >0x40 JTAG> >0x40 JTAG> >0x40 JTAG> >0x40 JTAG> >0x40 JTAG> >0x40 JTAG> >0x40 JTAG> >0x2F8 JTAG>TotalIRLen = 9, IRPrint = 0x0011 >0x30 JTAG> >0x210 JTAG> >0x70 JTAG> >0x40 JTAG> >0x40 JTAG> >0x40 JTAG> >0x50 JTAG> >0x80 JTAG> >0x40 JTAG> >0x30 JTAG> >0x40 JTAG> >0x40 JTAG> >0x30 JTAG> >0x40 JTAG> >0x50 JTAG>
Found Cortex-M3 r1p1, Little endian. -- CPU_WriteMem(4 bytes @ 0xE0002000) -- CPU_ReadMem(4 bytes @ 0xE000EDF0) -- CPU_WriteMem(4 bytes @ 0xE000EDF0) -- CPU_ReadMem(4 bytes @ 0xE0002000)FPUnit: 6 code (BP) slots and 2 literal slots -- CPU_ReadMem(4 bytes @ 0xE000EDFC) -- CPU_WriteMem(4 bytes @ 0xE000EDFC) -- CPU_ReadMem(4 bytes @ 0xE0001000) -- CPU_WriteMem(4 bytes @ 0xE0001000) -- CPU_ReadMem(4 bytes @ 0xE00FF010)TPIU fitted. -- CPU_ReadMem(4 bytes @ 0xE00FF014)ETM fitted.
 -- CPU_ReadMem(4 bytes @ 0xE00FF018) ScanLen=9 NumDevices=2 aId[0]=0x3BA00477 aIrRead[0]=0 aScanLen[0]=0 aScanRead[0]=0 (0068ms, 0652ms total)
T3064 000:861 JLINK_JTAG_GetDeviceID(DeviceIndex = 0)  returns 0x3BA00477 (0000ms, 0652ms total)
T3064 000:861 JLINK_JTAG_GetDeviceInfo(DeviceIndex = 0)  returns 0x00 (0000ms, 0652ms total)
T3064 000:861 JLINK_JTAG_GetDeviceID(DeviceIndex = 1)  returns 0x6430041 (0000ms, 0652ms total)
T3064 000:861 JLINK_JTAG_GetDeviceInfo(DeviceIndex = 1)  returns 0x00 (0000ms, 0652ms total)
T3064 000:861 JLINK_GetDeviceFamily()  returns 3 (0000ms, 0652ms total)
T3064 000:864 JLINK_ReadMem (0xE00FFFF0, 0x0010 Bytes, ...) -- CPU is running -- CPU_ReadMem(16 bytes @ 0xE00FFFF0) -- Data:  0D 00 00 00 10 00 00 00 05 00 00 00 B1 00 00 00  returns 0x00 (0002ms, 0654ms total)
T3064 000:866 JLINK_ReadMem (0xE00FFFD0, 0x0020 Bytes, ...) -- CPU is running -- CPU_ReadMem(32 bytes @ 0xE00FFFD0) -- Data:  00 00 00 00 00 00 00 00 00 00 00 00 00 00 00 00 ...  returns 0x00 (0001ms, 0655ms total)
T3064 000:867 JLINK_ReadMem (0xE00FF000, 0x0018 Bytes, ...) -- CPU is running -- CPU_ReadMem(24 bytes @ 0xE00FF000) -- Data:  03 F0 F0 FF 03 20 F0 FF 03 30 F0 FF 03 10 F0 FF ...  returns 0x00 (0002ms, 0657ms total)
T3064 000:869 JLINK_ReadMemU32(0xE000ED00, 0x0001 Items, ...) -- CPU is running -- CPU_ReadMem(4 bytes @ 0xE000ED00) -- Data:  31 C2 1F 41  returns 0x01 (0000ms, 0657ms total)
T3064 000:869 JLINK_SetResetType(JLINKARM_RESET_TYPE_NORMAL)  returns JLINKARM_RESET_TYPE_NORMAL (0000ms, 0657ms total)
T3064 000:869 JLINK_Reset() -- CPU is running -- CPU_WriteMem(4 bytes @ 0xE000EDF0) -- CPU is running -- CPU_WriteMem(4 bytes @ 0xE000EDFC) -- CPU is running -- CPU_WriteMem(4 bytes @ 0xE000ED0C) -- CPU is running -- CPU_ReadMem(4 bytes @ 0xE000EDF0) -- CPU is running -- CPU_ReadMem(4 bytes @ 0xE000EDF0) -- CPU is running -- CPU_WriteMem(4 bytes @ 0xE000EDF0) -- CPU is running -- CPU_WriteMem(4 bytes @ 0xE000EDFC) -- CPU is running -- CPU_ReadMem(4 bytes @ 0xE000EDF0) >0x80 JTAG> >0x40 JTAG> >0x30 JTAG>
 >0x40 JTAG> >0x50 JTAG> >0x40 JTAG> -- CPU_WriteMem(4 bytes @ 0xE000EDFC) -- CPU_WriteMem(4 bytes @ 0xE0001028) -- CPU_WriteMem(4 bytes @ 0xE0001038) -- CPU_WriteMem(4 bytes @ 0xE0001048) -- CPU_WriteMem(4 bytes @ 0xE0001058) -- CPU_WriteMem(4 bytes @ 0xE0002000) -- CPU_ReadMem(4 bytes @ 0xE000EDFC) -- CPU_ReadMem(4 bytes @ 0xE0001000) (0039ms, 0696ms total)
T3064 000:908 JLINK_Halt()  returns 0x00 (0000ms, 0696ms total)
T3064 000:908 JLINK_IsHalted()  returns TRUE (0000ms, 0696ms total)
T3064 000:908 JLINK_ReadMemU32(0xE000EDF0, 0x0001 Items, ...) -- CPU_ReadMem(4 bytes @ 0xE000EDF0) -- Data:  03 00 03 00  returns 0x01 (0002ms, 0698ms total)
T3064 000:910 JLINK_WriteU32(0xE000EDF0, 0xA05F0003) -- CPU_WriteMem(4 bytes @ 0xE000EDF0)  returns 0x00 (0001ms, 0699ms total)
T3064 000:911 JLINK_WriteU32(0xE000EDFC, 0x01000000) -- CPU_WriteMem(4 bytes @ 0xE000EDFC)  returns 0x00 (0001ms, 0700ms total)
T3064 000:938 JLINK_GetHWStatus(...)  returns 0x00 (0000ms, 0700ms total)
T3064 000:948 JLINK_GetNumBPUnits(Type = 0xFFFFFF00)  returns 0x06 (0000ms, 0700ms total)
T3064 000:948 JLINK_GetNumBPUnits(Type = 0xF0)  returns 0x2000 (0000ms, 0700ms total)
T3064 000:948 JLINK_GetNumWPUnits()  returns 0x04 (0000ms, 0700ms total)
T3064 000:959 JLINK_GetSpeed()  returns 0x7D0 (0000ms, 0700ms total)
T3064 000:967 JLINK_ReadMemU32(0xE000E004, 0x0001 Items, ...) -- CPU_ReadMem(4 bytes @ 0xE000E004) -- Data:  01 00 00 00  returns 0x01 (0002ms, 0702ms total)
T3064 000:969 JLINK_ReadMemU32(0xE000E004, 0x0001 Items, ...) -- CPU_ReadMem(4 bytes @ 0xE000E004) -- Data:  01 00 00 00  returns 0x01 (0001ms, 0703ms total)
T3064 000:970 JLINK_WriteMem(0xE0001000, 0x001C Bytes, ...) -- Data:  01 00 00 00 00 00 00 00 00 00 00 00 00 00 00 00 ... -- CPU_WriteMem(28 bytes @ 0xE0001000)  returns 0x1C (0001ms, 0704ms total)
T3064 000:971 JLINK_ReadMem (0xE0001000, 0x001C Bytes, ...) -- CPU_ReadMem(28 bytes @ 0xE0001000) -- Data:  01 00 00 40 00 00 00 00 00 00 00 00 00 00 00 00 ...  returns 0x00 (0001ms, 0705ms total)
T3064 000:972 JLINK_Halt()  returns 0x00 (0000ms, 0705ms total)
T3064 000:972 JLINK_IsHalted()  returns TRUE (0000ms, 0705ms total)
T3064 000:974 JLINK_WriteMem(0x20000000, 0x0164 Bytes, ...) -- Data:  00 BE 0A E0 0D 78 2D 06 68 40 08 24 40 00 00 D3 ... -- CPU_WriteMem(356 bytes @ 0x20000000)  returns 0x164 (0003ms, 0708ms total)
T3064 000:978 JLINK_WriteReg(R0, 0x08000000)  returns 0x00 (0000ms, 0708ms total)
T3064 000:978 JLINK_WriteReg(R1, 0x007A1200)  returns 0x00 (0000ms, 0708ms total)
T3064 000:978 JLINK_WriteReg(R2, 0x00000001)  returns 0x00 (0000ms, 0708ms total)
T3064 000:978 JLINK_WriteReg(R3, 0x00000000)  returns 0x00 (0000ms, 0708ms total)
T3064 000:978 JLINK_WriteReg(R4, 0x00000000)  returns 0x00 (0000ms, 0708ms total)
T3064 000:978 JLINK_WriteReg(R5, 0x00000000)  returns 0x00 (0000ms, 0708ms total)
T3064 000:978 JLINK_WriteReg(R6, 0x00000000)  returns 0x00 (0000ms, 0708ms total)
T3064 000:978 JLINK_WriteReg(R7, 0x00000000)  returns 0x00 (0000ms, 0708ms total)
T3064 000:978 JLINK_WriteReg(R8, 0x00000000)  returns 0x00 (0000ms, 0708ms total)
T3064 000:978 JLINK_WriteReg(R9, 0x20000160)  returns 0x00 (0000ms, 0708ms total)
T3064 000:978 JLINK_WriteReg(R10, 0x00000000)  returns 0x00 (0000ms, 0708ms total)
T3064 000:978 JLINK_WriteReg(R11, 0x00000000)  returns 0x00 (0000ms, 0708ms total)
T3064 000:978 JLINK_WriteReg(R12, 0x00000000)  returns 0x00 (0000ms, 0708ms total)
T3064 000:978 JLINK_WriteReg(R13 (SP), 0x20000800)  returns 0x00 (0000ms, 0708ms total)
T3064 000:978 JLINK_WriteReg(R14, 0x20000001)  returns 0x00 (0000ms, 0708ms total)
T3064 000:978 JLINK_WriteReg(R15 (PC), 0x20000038)  returns 0x00 (0000ms, 0708ms total)
T3064 000:978 JLINK_WriteReg(XPSR, 0x01000000)  returns 0x00 (0000ms, 0708ms total)
T3064 000:978 JLINK_WriteReg(MSP, 0x20000800)  returns 0x00 (0000ms, 0708ms total)
T3064 000:978 JLINK_WriteReg(PSP, 0x20000800)  returns 0x00 (0000ms, 0708ms total)
T3064 000:978 JLINK_WriteReg(CFBP, 0x00000000)  returns 0x00 (0000ms, 0708ms total)
T3064 000:978 JLINK_SetBPEx(Addr = 0x20000000, Type = 0xFFFFFFF2) -- CPU_ReadMem(2 bytes @ 0x20000000)  returns 0x00000001 (0002ms, 0710ms total)
T3064 000:980 JLINK_Go() -- CPU_WriteMem(2 bytes @ 0x20000000) -- CPU_WriteMem(4 bytes @ 0xE0002008) -- CPU_WriteMem(4 bytes @ 0xE000200C) -- CPU_WriteMem(4 bytes @ 0xE0002010) -- CPU_WriteMem(4 bytes @ 0xE0002014) -- CPU_WriteMem(4 bytes @ 0xE0002018) -- CPU_WriteMem(4 bytes @ 0xE000201C) -- CPU_WriteMem(4 bytes @ 0xE0001004) (0011ms, 0721ms total)
T3064 000:991 JLINK_IsHalted() -- CPU_ReadMem(2 bytes @ 0x20000000)  returns TRUE (0005ms, 0726ms total)
T3064 000:996 JLINK_ReadReg(R15 (PC))  returns 0x20000000 (0000ms, 0721ms total)
T3064 000:996 JLINK_ClrBPEx(BPHandle = 0x00000001)  returns 0x00 (0000ms, 0721ms total)
T3064 000:996 JLINK_ReadReg(R0)  returns 0x00000000 (0000ms, 0721ms total)
T3064 000:997 JLINK_WriteReg(R0, 0x08000000)  returns 0x00 (0000ms, 0721ms total)
T3064 000:997 JLINK_WriteReg(R1, 0x007A1200)  returns 0x00 (0000ms, 0721ms total)
T3064 000:997 JLINK_WriteReg(R2, 0x00000001)  returns 0x00 (0000ms, 0721ms total)
T3064 000:997 JLINK_WriteReg(R3, 0x00000000)  returns 0x00 (0000ms, 0721ms total)
T3064 000:997 JLINK_WriteReg(R4, 0x00000000)  returns 0x00 (0000ms, 0721ms total)
T3064 000:997 JLINK_WriteReg(R5, 0x00000000)  returns 0x00 (0000ms, 0721ms total)
T3064 000:997 JLINK_WriteReg(R6, 0x00000000)  returns 0x00 (0000ms, 0721ms total)
T3064 000:997 JLINK_WriteReg(R7, 0x00000000)  returns 0x00 (0000ms, 0721ms total)
T3064 000:997 JLINK_WriteReg(R8, 0x00000000)  returns 0x00 (0000ms, 0721ms total)
T3064 000:997 JLINK_WriteReg(R9, 0x20000160)  returns 0x00 (0000ms, 0721ms total)
T3064 000:997 JLINK_WriteReg(R10, 0x00000000)  returns 0x00 (0000ms, 0721ms total)
T3064 000:997 JLINK_WriteReg(R11, 0x00000000)  returns 0x00 (0000ms, 0721ms total)
T3064 000:997 JLINK_WriteReg(R12, 0x00000000)  returns 0x00 (0000ms, 0721ms total)
T3064 000:997 JLINK_WriteReg(R13 (SP), 0x20000800)  returns 0x00 (0000ms, 0721ms total)
T3064 000:997 JLINK_WriteReg(R14, 0x20000001)  returns 0x00 (0000ms, 0721ms total)
T3064 000:997 JLINK_WriteReg(R15 (PC), 0x2000007C)  returns 0x00 (0000ms, 0721ms total)
T3064 000:997 JLINK_WriteReg(XPSR, 0x01000000)  returns 0x00 (0000ms, 0721ms total)
T3064 000:998 JLINK_WriteReg(MSP, 0x20000800)  returns 0x00 (0000ms, 0722ms total)
T3064 000:998 JLINK_WriteReg(PSP, 0x20000800)  returns 0x00 (0000ms, 0722ms total)
T3064 000:998 JLINK_WriteReg(CFBP, 0x00000000)  returns 0x00 (0000ms, 0722ms total)
T3064 000:998 JLINK_SetBPEx(Addr = 0x20000000, Type = 0xFFFFFFF2)  returns 0x00000002 (0000ms, 0722ms total)
T3064 000:998 JLINK_Go() (0002ms, 0724ms total)
T3064 001:000 JLINK_IsHalted()  returns FALSE (0001ms, 0725ms total)
T3064 001:069 JLINK_IsHalted() -- CPU_ReadMem(2 bytes @ 0x20000000)  returns TRUE (0006ms, 0730ms total)
T3064 001:075 JLINK_ReadReg(R15 (PC))  returns 0x20000000 (0000ms, 0724ms total)
T3064 001:075 JLINK_ClrBPEx(BPHandle = 0x00000002)  returns 0x00 (0000ms, 0724ms total)
T3064 001:075 JLINK_ReadReg(R0)  returns 0x00000000 (0000ms, 0724ms total)
T3064 001:126 JLINK_WriteReg(R0, 0x00000001)  returns 0x00 (0001ms, 0725ms total)
T3064 001:127 JLINK_WriteReg(R1, 0x007A1200)  returns 0x00 (0000ms, 0725ms total)
T3064 001:127 JLINK_WriteReg(R2, 0x00000001)  returns 0x00 (0000ms, 0725ms total)
T3064 001:127 JLINK_WriteReg(R3, 0x00000000)  returns 0x00 (0000ms, 0725ms total)
T3064 001:127 JLINK_WriteReg(R4, 0x00000000)  returns 0x00 (0000ms, 0725ms total)
T3064 001:127 JLINK_WriteReg(R5, 0x00000000)  returns 0x00 (0001ms, 0726ms total)
T3064 001:128 JLINK_WriteReg(R6, 0x00000000)  returns 0x00 (0000ms, 0726ms total)
T3064 001:128 JLINK_WriteReg(R7, 0x00000000)  returns 0x00 (0000ms, 0726ms total)
T3064 001:128 JLINK_WriteReg(R8, 0x00000000)  returns 0x00 (0000ms, 0726ms total)
T3064 001:128 JLINK_WriteReg(R9, 0x20000160)  returns 0x00 (0000ms, 0726ms total)
T3064 001:128 JLINK_WriteReg(R10, 0x00000000)  returns 0x00 (0000ms, 0726ms total)
T3064 001:128 JLINK_WriteReg(R11, 0x00000000)  returns 0x00 (0000ms, 0726ms total)
T3064 001:128 JLINK_WriteReg(R12, 0x00000000)  returns 0x00 (0000ms, 0726ms total)
T3064 001:128 JLINK_WriteReg(R13 (SP), 0x20000800)  returns 0x00 (0001ms, 0727ms total)
T3064 001:129 JLINK_WriteReg(R14, 0x20000001)  returns 0x00 (0000ms, 0727ms total)
T3064 001:129 JLINK_WriteReg(R15 (PC), 0x2000006A)  returns 0x00 (0000ms, 0727ms total)
T3064 001:129 JLINK_WriteReg(XPSR, 0x01000000)  returns 0x00 (0000ms, 0727ms total)
T3064 001:129 JLINK_WriteReg(MSP, 0x20000800)  returns 0x00 (0000ms, 0727ms total)
T3064 001:129 JLINK_WriteReg(PSP, 0x20000800)  returns 0x00 (0000ms, 0727ms total)
T3064 001:129 JLINK_WriteReg(CFBP, 0x00000000)  returns 0x00 (0000ms, 0727ms total)
T3064 001:129 JLINK_SetBPEx(Addr = 0x20000000, Type = 0xFFFFFFF2)  returns 0x00000003 (0000ms, 0727ms total)
T3064 001:129 JLINK_Go() (0003ms, 0730ms total)
T3064 001:132 JLINK_IsHalted() -- CPU_ReadMem(2 bytes @ 0x20000000)  returns TRUE (0006ms, 0736ms total)
T3064 001:138 JLINK_ReadReg(R15 (PC))  returns 0x20000000 (0000ms, 0730ms total)
T3064 001:138 JLINK_ClrBPEx(BPHandle = 0x00000003)  returns 0x00 (0000ms, 0730ms total)
T3064 001:138 JLINK_ReadReg(R0)  returns 0x00000000 (0000ms, 0730ms total)
T3064 001:152 JLINK_WriteMem(0x20000000, 0x0164 Bytes, ...) -- Data:  00 BE 0A E0 0D 78 2D 06 68 40 08 24 40 00 00 D3 ... -- CPU_WriteMem(356 bytes @ 0x20000000)  returns 0x164 (0006ms, 0736ms total)
T3064 001:158 JLINK_WriteReg(R0, 0x08000000)  returns 0x00 (0000ms, 0736ms total)
T3064 001:158 JLINK_WriteReg(R1, 0x007A1200)  returns 0x00 (0000ms, 0736ms total)
T3064 001:158 JLINK_WriteReg(R2, 0x00000002)  returns 0x00 (0001ms, 0737ms total)
T3064 001:159 JLINK_WriteReg(R3, 0x00000000)  returns 0x00 (0000ms, 0737ms total)
T3064 001:159 JLINK_WriteReg(R4, 0x00000000)  returns 0x00 (0000ms, 0737ms total)
T3064 001:159 JLINK_WriteReg(R5, 0x00000000)  returns 0x00 (0000ms, 0737ms total)
T3064 001:159 JLINK_WriteReg(R6, 0x00000000)  returns 0x00 (0000ms, 0737ms total)
T3064 001:159 JLINK_WriteReg(R7, 0x00000000)  returns 0x00 (0000ms, 0737ms total)
T3064 001:159 JLINK_WriteReg(R8, 0x00000000)  returns 0x00 (0000ms, 0737ms total)
T3064 001:159 JLINK_WriteReg(R9, 0x20000160)  returns 0x00 (0000ms, 0737ms total)
T3064 001:159 JLINK_WriteReg(R10, 0x00000000)  returns 0x00 (0000ms, 0737ms total)
T3064 001:159 JLINK_WriteReg(R11, 0x00000000)  returns 0x00 (0001ms, 0738ms total)
T3064 001:160 JLINK_WriteReg(R12, 0x00000000)  returns 0x00 (0000ms, 0738ms total)
T3064 001:160 JLINK_WriteReg(R13 (SP), 0x20000800)  returns 0x00 (0000ms, 0738ms total)
T3064 001:160 JLINK_WriteReg(R14, 0x20000001)  returns 0x00 (0000ms, 0738ms total)
T3064 001:160 JLINK_WriteReg(R15 (PC), 0x20000038)  returns 0x00 (0000ms, 0738ms total)
T3064 001:160 JLINK_WriteReg(XPSR, 0x01000000)  returns 0x00 (0000ms, 0738ms total)
T3064 001:160 JLINK_WriteReg(MSP, 0x20000800)  returns 0x00 (0000ms, 0738ms total)
T3064 001:160 JLINK_WriteReg(PSP, 0x20000800)  returns 0x00 (0000ms, 0738ms total)
T3064 001:160 JLINK_WriteReg(CFBP, 0x00000000)  returns 0x00 (0001ms, 0739ms total)
T3064 001:161 JLINK_SetBPEx(Addr = 0x20000000, Type = 0xFFFFFFF2) -- CPU_ReadMem(2 bytes @ 0x20000000)  returns 0x00000004 (0001ms, 0740ms total)
T3064 001:162 JLINK_Go() -- CPU_WriteMem(2 bytes @ 0x20000000) (0004ms, 0744ms total)
T3064 001:166 JLINK_IsHalted() -- CPU_ReadMem(2 bytes @ 0x20000000)  returns TRUE (0005ms, 0749ms total)
T3064 001:171 JLINK_ReadReg(R15 (PC))  returns 0x20000000 (0000ms, 0744ms total)
T3064 001:171 JLINK_ClrBPEx(BPHandle = 0x00000004)  returns 0x00 (0001ms, 0745ms total)
T3064 001:172 JLINK_ReadReg(R0)  returns 0x00000000 (0000ms, 0745ms total)
T3064 001:172 JLINK_WriteMem(0x20000164, 0x0400 Bytes, ...) -- Data:  08 2A 00 20 45 01 00 08 FD 41 00 08 FF 41 00 08 ... -- CPU_WriteMem(1024 bytes @ 0x20000164)  returns 0x400 (0008ms, 0753ms total)
T3064 001:180 JLINK_WriteReg(R0, 0x08000000)  returns 0x00 (0000ms, 0753ms total)
T3064 001:180 JLINK_WriteReg(R1, 0x00000400)  returns 0x00 (0000ms, 0753ms total)
T3064 001:180 JLINK_WriteReg(R2, 0x20000164)  returns 0x00 (0000ms, 0753ms total)
T3064 001:180 JLINK_WriteReg(R3, 0x00000000)  returns 0x00 (0000ms, 0753ms total)
T3064 001:180 JLINK_WriteReg(R4, 0x00000000)  returns 0x00 (0000ms, 0753ms total)
T3064 001:180 JLINK_WriteReg(R5, 0x00000000)  returns 0x00 (0000ms, 0753ms total)
T3064 001:180 JLINK_WriteReg(R6, 0x00000000)  returns 0x00 (0000ms, 0753ms total)
T3064 001:180 JLINK_WriteReg(R7, 0x00000000)  returns 0x00 (0000ms, 0753ms total)
T3064 001:180 JLINK_WriteReg(R8, 0x00000000)  returns 0x00 (0000ms, 0753ms total)
T3064 001:180 JLINK_WriteReg(R9, 0x20000160)  returns 0x00 (0000ms, 0753ms total)
T3064 001:180 JLINK_WriteReg(R10, 0x00000000)  returns 0x00 (0000ms, 0753ms total)
T3064 001:180 JLINK_WriteReg(R11, 0x00000000)  returns 0x00 (0000ms, 0753ms total)
T3064 001:180 JLINK_WriteReg(R12, 0x00000000)  returns 0x00 (0000ms, 0753ms total)
T3064 001:180 JLINK_WriteReg(R13 (SP), 0x20000800)  returns 0x00 (0000ms, 0753ms total)
T3064 001:180 JLINK_WriteReg(R14, 0x20000001)  returns 0x00 (0000ms, 0753ms total)
T3064 001:180 JLINK_WriteReg(R15 (PC), 0x200000F4)  returns 0x00 (0000ms, 0753ms total)
T3064 001:180 JLINK_WriteReg(XPSR, 0x01000000)  returns 0x00 (0001ms, 0754ms total)
T3064 001:181 JLINK_WriteReg(MSP, 0x20000800)  returns 0x00 (0000ms, 0754ms total)
T3064 001:181 JLINK_WriteReg(PSP, 0x20000800)  returns 0x00 (0000ms, 0754ms total)
T3064 001:181 JLINK_WriteReg(CFBP, 0x00000000)  returns 0x00 (0000ms, 0754ms total)
T3064 001:181 JLINK_SetBPEx(Addr = 0x20000000, Type = 0xFFFFFFF2)  returns 0x00000005 (0000ms, 0754ms total)
T3064 001:181 JLINK_Go() (0003ms, 0757ms total)
T3064 001:184 JLINK_IsHalted()  returns FALSE (0000ms, 0757ms total)
T3064 001:253 JLINK_IsHalted() -- CPU_ReadMem(2 bytes @ 0x20000000)  returns TRUE (0006ms, 0763ms total)
T3064 001:259 JLINK_ReadReg(R15 (PC))  returns 0x20000000 (0000ms, 0757ms total)
T3064 001:259 JLINK_ClrBPEx(BPHandle = 0x00000005)  returns 0x00 (0000ms, 0757ms total)
T3064 001:259 JLINK_ReadReg(R0)  returns 0x00000000 (0000ms, 0757ms total)
T3064 001:259 JLINK_WriteMem(0x20000164, 0x0400 Bytes, ...) -- Data:  FF F7 A4 FE 00 21 98 20 FF F7 A0 FE 41 F2 18 01 ... -- CPU_WriteMem(1024 bytes @ 0x20000164)  returns 0x400 (0007ms, 0764ms total)
T3064 001:266 JLINK_WriteReg(R0, 0x08000400)  returns 0x00 (0000ms, 0764ms total)
T3064 001:267 JLINK_WriteReg(R1, 0x00000400)  returns 0x00 (0000ms, 0765ms total)
T3064 001:267 JLINK_WriteReg(R2, 0x20000164)  returns 0x00 (0000ms, 0765ms total)
T3064 001:267 JLINK_WriteReg(R3, 0x00000000)  returns 0x00 (0000ms, 0765ms total)
T3064 001:267 JLINK_WriteReg(R4, 0x00000000)  returns 0x00 (0000ms, 0765ms total)
T3064 001:267 JLINK_WriteReg(R5, 0x00000000)  returns 0x00 (0000ms, 0765ms total)
T3064 001:267 JLINK_WriteReg(R6, 0x00000000)  returns 0x00 (0000ms, 0765ms total)
T3064 001:267 JLINK_WriteReg(R7, 0x00000000)  returns 0x00 (0000ms, 0765ms total)
T3064 001:267 JLINK_WriteReg(R8, 0x00000000)  returns 0x00 (0000ms, 0765ms total)
T3064 001:267 JLINK_WriteReg(R9, 0x20000160)  returns 0x00 (0000ms, 0765ms total)
T3064 001:267 JLINK_WriteReg(R10, 0x00000000)  returns 0x00 (0000ms, 0765ms total)
T3064 001:267 JLINK_WriteReg(R11, 0x00000000)  returns 0x00 (0000ms, 0765ms total)
T3064 001:267 JLINK_WriteReg(R12, 0x00000000)  returns 0x00 (0000ms, 0765ms total)
T3064 001:267 JLINK_WriteReg(R13 (SP), 0x20000800)  returns 0x00 (0000ms, 0765ms total)
T3064 001:267 JLINK_WriteReg(R14, 0x20000001)  returns 0x00 (0000ms, 0765ms total)
T3064 001:267 JLINK_WriteReg(R15 (PC), 0x200000F4)  returns 0x00 (0000ms, 0765ms total)
T3064 001:267 JLINK_WriteReg(XPSR, 0x01000000)  returns 0x00 (0000ms, 0765ms total)
T3064 001:267 JLINK_WriteReg(MSP, 0x20000800)  returns 0x00 (0000ms, 0765ms total)
T3064 001:267 JLINK_WriteReg(PSP, 0x20000800)  returns 0x00 (0000ms, 0765ms total)
T3064 001:267 JLINK_WriteReg(CFBP, 0x00000000)  returns 0x00 (0000ms, 0765ms total)
T3064 001:267 JLINK_SetBPEx(Addr = 0x20000000, Type = 0xFFFFFFF2)  returns 0x00000006 (0000ms, 0765ms total)
T3064 001:267 JLINK_Go() (0003ms, 0768ms total)
T3064 001:270 JLINK_IsHalted()  returns FALSE (0001ms, 0769ms total)
T3064 001:277 JLINK_IsHalted()  returns FALSE (0001ms, 0769ms total)
T3064 001:279 JLINK_IsHalted()  returns FALSE (0001ms, 0769ms total)
T3064 001:281 JLINK_IsHalted()  returns FALSE (0001ms, 0769ms total)
T3064 001:283 JLINK_IsHalted()  returns FALSE (0001ms, 0769ms total)
T3064 001:285 JLINK_IsHalted()  returns FALSE (0001ms, 0769ms total)
T3064 001:287 JLINK_IsHalted()  returns FALSE (0001ms, 0769ms total)
T3064 001:289 JLINK_IsHalted()  returns FALSE (0001ms, 0769ms total)
T3064 001:291 JLINK_IsHalted()  returns FALSE (0001ms, 0769ms total)
T3064 001:293 JLINK_IsHalted()  returns FALSE (0001ms, 0769ms total)
T3064 001:295 JLINK_IsHalted()  returns FALSE (0001ms, 0769ms total)
T3064 001:297 JLINK_IsHalted()  returns FALSE (0001ms, 0769ms total)
T3064 001:299 JLINK_IsHalted()  returns FALSE (0001ms, 0769ms total)
T3064 001:301 JLINK_IsHalted() -- CPU_ReadMem(2 bytes @ 0x20000000)  returns TRUE (0005ms, 0773ms total)
T3064 001:306 JLINK_ReadReg(R15 (PC))  returns 0x20000000 (0000ms, 0768ms total)
T3064 001:306 JLINK_ClrBPEx(BPHandle = 0x00000006)  returns 0x00 (0000ms, 0768ms total)
T3064 001:306 JLINK_ReadReg(R0)  returns 0x00000000 (0000ms, 0768ms total)
T3064 001:307 JLINK_WriteMem(0x20000164, 0x0400 Bytes, ...) -- Data:  28 FE 6D 1C 20 2D ED D3 64 1C B4 F5 16 6F E7 D3 ... -- CPU_WriteMem(1024 bytes @ 0x20000164)  returns 0x400 (0006ms, 0774ms total)
T3064 001:313 JLINK_WriteReg(R0, 0x08000800)  returns 0x00 (0000ms, 0774ms total)
T3064 001:313 JLINK_WriteReg(R1, 0x00000400)  returns 0x00 (0000ms, 0774ms total)
T3064 001:313 JLINK_WriteReg(R2, 0x20000164)  returns 0x00 (0000ms, 0774ms total)
T3064 001:313 JLINK_WriteReg(R3, 0x00000000)  returns 0x00 (0001ms, 0775ms total)
T3064 001:314 JLINK_WriteReg(R4, 0x00000000)  returns 0x00 (0000ms, 0775ms total)
T3064 001:314 JLINK_WriteReg(R5, 0x00000000)  returns 0x00 (0000ms, 0775ms total)
T3064 001:314 JLINK_WriteReg(R6, 0x00000000)  returns 0x00 (0000ms, 0775ms total)
T3064 001:314 JLINK_WriteReg(R7, 0x00000000)  returns 0x00 (0000ms, 0775ms total)
T3064 001:314 JLINK_WriteReg(R8, 0x00000000)  returns 0x00 (0000ms, 0775ms total)
T3064 001:314 JLINK_WriteReg(R9, 0x20000160)  returns 0x00 (0000ms, 0775ms total)
T3064 001:314 JLINK_WriteReg(R10, 0x00000000)  returns 0x00 (0000ms, 0775ms total)
T3064 001:314 JLINK_WriteReg(R11, 0x00000000)  returns 0x00 (0000ms, 0775ms total)
T3064 001:314 JLINK_WriteReg(R12, 0x00000000)  returns 0x00 (0000ms, 0775ms total)
T3064 001:314 JLINK_WriteReg(R13 (SP), 0x20000800)  returns 0x00 (0000ms, 0775ms total)
T3064 001:314 JLINK_WriteReg(R14, 0x20000001)  returns 0x00 (0000ms, 0775ms total)
T3064 001:314 JLINK_WriteReg(R15 (PC), 0x200000F4)  returns 0x00 (0000ms, 0775ms total)
T3064 001:314 JLINK_WriteReg(XPSR, 0x01000000)  returns 0x00 (0000ms, 0775ms total)
T3064 001:314 JLINK_WriteReg(MSP, 0x20000800)  returns 0x00 (0000ms, 0775ms total)
T3064 001:314 JLINK_WriteReg(PSP, 0x20000800)  returns 0x00 (0000ms, 0775ms total)
T3064 001:314 JLINK_WriteReg(CFBP, 0x00000000)  returns 0x00 (0000ms, 0775ms total)
T3064 001:314 JLINK_SetBPEx(Addr = 0x20000000, Type = 0xFFFFFFF2)  returns 0x00000007 (0000ms, 0775ms total)
T3064 001:314 JLINK_Go() (0003ms, 0778ms total)
T3064 001:317 JLINK_IsHalted()  returns FALSE (0001ms, 0779ms total)
T3064 001:344 JLINK_IsHalted()  returns FALSE (0001ms, 0779ms total)
T3064 001:348 JLINK_IsHalted() -- CPU_ReadMem(2 bytes @ 0x20000000)  returns TRUE (0006ms, 0784ms total)
T3064 001:354 JLINK_ReadReg(R15 (PC))  returns 0x20000000 (0000ms, 0778ms total)
T3064 001:354 JLINK_ClrBPEx(BPHandle = 0x00000007)  returns 0x00 (0000ms, 0778ms total)
T3064 001:354 JLINK_ReadReg(R0)  returns 0x00000000 (0000ms, 0778ms total)
T3064 001:355 JLINK_WriteMem(0x20000164, 0x0400 Bytes, ...) -- Data:  96 FF 4C E0 B8 F1 00 0F 18 D1 A9 45 10 DD A9 EB ... -- CPU_WriteMem(1024 bytes @ 0x20000164)  returns 0x400 (0007ms, 0785ms total)
T3064 001:362 JLINK_WriteReg(R0, 0x08000C00)  returns 0x00 (0000ms, 0785ms total)
T3064 001:362 JLINK_WriteReg(R1, 0x00000400)  returns 0x00 (0000ms, 0785ms total)
T3064 001:362 JLINK_WriteReg(R2, 0x20000164)  returns 0x00 (0000ms, 0785ms total)
T3064 001:362 JLINK_WriteReg(R3, 0x00000000)  returns 0x00 (0000ms, 0785ms total)
T3064 001:362 JLINK_WriteReg(R4, 0x00000000)  returns 0x00 (0000ms, 0785ms total)
T3064 001:362 JLINK_WriteReg(R5, 0x00000000)  returns 0x00 (0000ms, 0785ms total)
T3064 001:362 JLINK_WriteReg(R6, 0x00000000)  returns 0x00 (0000ms, 0785ms total)
T3064 001:362 JLINK_WriteReg(R7, 0x00000000)  returns 0x00 (0000ms, 0785ms total)
T3064 001:362 JLINK_WriteReg(R8, 0x00000000)  returns 0x00 (0000ms, 0785ms total)
T3064 001:362 JLINK_WriteReg(R9, 0x20000160)  returns 0x00 (0000ms, 0785ms total)
T3064 001:362 JLINK_WriteReg(R10, 0x00000000)  returns 0x00 (0000ms, 0785ms total)
T3064 001:362 JLINK_WriteReg(R11, 0x00000000)  returns 0x00 (0000ms, 0785ms total)
T3064 001:362 JLINK_WriteReg(R12, 0x00000000)  returns 0x00 (0000ms, 0785ms total)
T3064 001:362 JLINK_WriteReg(R13 (SP), 0x20000800)  returns 0x00 (0000ms, 0785ms total)
T3064 001:362 JLINK_WriteReg(R14, 0x20000001)  returns 0x00 (0000ms, 0785ms total)
T3064 001:362 JLINK_WriteReg(R15 (PC), 0x200000F4)  returns 0x00 (0000ms, 0785ms total)
T3064 001:362 JLINK_WriteReg(XPSR, 0x01000000)  returns 0x00 (0000ms, 0785ms total)
T3064 001:362 JLINK_WriteReg(MSP, 0x20000800)  returns 0x00 (0000ms, 0785ms total)
T3064 001:362 JLINK_WriteReg(PSP, 0x20000800)  returns 0x00 (0000ms, 0785ms total)
T3064 001:362 JLINK_WriteReg(CFBP, 0x00000000)  returns 0x00 (0000ms, 0785ms total)
T3064 001:362 JLINK_SetBPEx(Addr = 0x20000000, Type = 0xFFFFFFF2)  returns 0x00000008 (0000ms, 0785ms total)
T3064 001:362 JLINK_Go() (0003ms, 0788ms total)
T3064 001:365 JLINK_IsHalted()  returns FALSE (0001ms, 0789ms total)
T3064 001:382 JLINK_IsHalted()  returns FALSE (0001ms, 0789ms total)
T3064 001:386 JLINK_IsHalted()  returns FALSE (0002ms, 0790ms total)
T3064 001:389 JLINK_IsHalted()  returns FALSE (0002ms, 0790ms total)
T3064 001:393 JLINK_IsHalted()  returns FALSE (0001ms, 0789ms total)
T3064 001:395 JLINK_IsHalted()  returns FALSE (0001ms, 0789ms total)
T3064 001:397 JLINK_IsHalted() -- CPU_ReadMem(2 bytes @ 0x20000000)  returns TRUE (0006ms, 0794ms total)
T3064 001:403 JLINK_ReadReg(R15 (PC))  returns 0x20000000 (0000ms, 0788ms total)
T3064 001:403 JLINK_ClrBPEx(BPHandle = 0x00000008)  returns 0x00 (0000ms, 0788ms total)
T3064 001:403 JLINK_ReadReg(R0)  returns 0x00000000 (0000ms, 0788ms total)
T3064 001:404 JLINK_WriteMem(0x20000164, 0x0400 Bytes, ...) -- Data:  05 46 0E 46 04 24 0F 20 FF F7 21 FF 04 46 04 2C ... -- CPU_WriteMem(1024 bytes @ 0x20000164)  returns 0x400 (0007ms, 0795ms total)
T3064 001:411 JLINK_WriteReg(R0, 0x08001000)  returns 0x00 (0000ms, 0795ms total)
T3064 001:411 JLINK_WriteReg(R1, 0x00000400)  returns 0x00 (0000ms, 0795ms total)
T3064 001:411 JLINK_WriteReg(R2, 0x20000164)  returns 0x00 (0000ms, 0795ms total)
T3064 001:411 JLINK_WriteReg(R3, 0x00000000)  returns 0x00 (0000ms, 0795ms total)
T3064 001:411 JLINK_WriteReg(R4, 0x00000000)  returns 0x00 (0000ms, 0795ms total)
T3064 001:411 JLINK_WriteReg(R5, 0x00000000)  returns 0x00 (0000ms, 0795ms total)
T3064 001:411 JLINK_WriteReg(R6, 0x00000000)  returns 0x00 (0000ms, 0795ms total)
T3064 001:411 JLINK_WriteReg(R7, 0x00000000)  returns 0x00 (0000ms, 0795ms total)
T3064 001:411 JLINK_WriteReg(R8, 0x00000000)  returns 0x00 (0000ms, 0795ms total)
T3064 001:411 JLINK_WriteReg(R9, 0x20000160)  returns 0x00 (0000ms, 0795ms total)
T3064 001:411 JLINK_WriteReg(R10, 0x00000000)  returns 0x00 (0000ms, 0795ms total)
T3064 001:411 JLINK_WriteReg(R11, 0x00000000)  returns 0x00 (0000ms, 0795ms total)
T3064 001:411 JLINK_WriteReg(R12, 0x00000000)  returns 0x00 (0000ms, 0795ms total)
T3064 001:411 JLINK_WriteReg(R13 (SP), 0x20000800)  returns 0x00 (0000ms, 0795ms total)
T3064 001:411 JLINK_WriteReg(R14, 0x20000001)  returns 0x00 (0000ms, 0795ms total)
T3064 001:411 JLINK_WriteReg(R15 (PC), 0x200000F4)  returns 0x00 (0000ms, 0795ms total)
T3064 001:411 JLINK_WriteReg(XPSR, 0x01000000)  returns 0x00 (0000ms, 0795ms total)
T3064 001:411 JLINK_WriteReg(MSP, 0x20000800)  returns 0x00 (0000ms, 0795ms total)
T3064 001:411 JLINK_WriteReg(PSP, 0x20000800)  returns 0x00 (0000ms, 0795ms total)
T3064 001:411 JLINK_WriteReg(CFBP, 0x00000000)  returns 0x00 (0000ms, 0795ms total)
T3064 001:411 JLINK_SetBPEx(Addr = 0x20000000, Type = 0xFFFFFFF2)  returns 0x00000009 (0000ms, 0795ms total)
T3064 001:411 JLINK_Go() (0003ms, 0798ms total)
T3064 001:414 JLINK_IsHalted()  returns FALSE (0001ms, 0799ms total)
T3064 001:418 JLINK_IsHalted()  returns FALSE (0002ms, 0800ms total)
T3064 001:444 JLINK_IsHalted()  returns FALSE (0001ms, 0799ms total)
T3064 001:446 JLINK_IsHalted() -- CPU_ReadMem(2 bytes @ 0x20000000)  returns TRUE (0006ms, 0804ms total)
T3064 001:452 JLINK_ReadReg(R15 (PC))  returns 0x20000000 (0000ms, 0798ms total)
T3064 001:452 JLINK_ClrBPEx(BPHandle = 0x00000009)  returns 0x00 (0000ms, 0798ms total)
T3064 001:452 JLINK_ReadReg(R0)  returns 0x00000000 (0000ms, 0798ms total)
T3064 001:453 JLINK_WriteMem(0x20000164, 0x0400 Bytes, ...) -- Data:  81 6A B1 F5 80 4F 1A D1 81 6B 09 68 82 6B 52 68 ... -- CPU_WriteMem(1024 bytes @ 0x20000164)  returns 0x400 (0007ms, 0805ms total)
T3064 001:460 JLINK_WriteReg(R0, 0x08001400)  returns 0x00 (0000ms, 0805ms total)
T3064 001:460 JLINK_WriteReg(R1, 0x00000400)  returns 0x00 (0000ms, 0805ms total)
T3064 001:460 JLINK_WriteReg(R2, 0x20000164)  returns 0x00 (0000ms, 0805ms total)
T3064 001:460 JLINK_WriteReg(R3, 0x00000000)  returns 0x00 (0000ms, 0805ms total)
T3064 001:460 JLINK_WriteReg(R4, 0x00000000)  returns 0x00 (0000ms, 0805ms total)
T3064 001:460 JLINK_WriteReg(R5, 0x00000000)  returns 0x00 (0000ms, 0805ms total)
T3064 001:460 JLINK_WriteReg(R6, 0x00000000)  returns 0x00 (0000ms, 0805ms total)
T3064 001:460 JLINK_WriteReg(R7, 0x00000000)  returns 0x00 (0000ms, 0805ms total)
T3064 001:460 JLINK_WriteReg(R8, 0x00000000)  returns 0x00 (0000ms, 0805ms total)
T3064 001:460 JLINK_WriteReg(R9, 0x20000160)  returns 0x00 (0000ms, 0805ms total)
T3064 001:460 JLINK_WriteReg(R10, 0x00000000)  returns 0x00 (0000ms, 0805ms total)
T3064 001:460 JLINK_WriteReg(R11, 0x00000000)  returns 0x00 (0000ms, 0805ms total)
T3064 001:460 JLINK_WriteReg(R12, 0x00000000)  returns 0x00 (0000ms, 0805ms total)
T3064 001:460 JLINK_WriteReg(R13 (SP), 0x20000800)  returns 0x00 (0000ms, 0805ms total)
T3064 001:460 JLINK_WriteReg(R14, 0x20000001)  returns 0x00 (0000ms, 0805ms total)
T3064 001:460 JLINK_WriteReg(R15 (PC), 0x200000F4)  returns 0x00 (0000ms, 0805ms total)
T3064 001:460 JLINK_WriteReg(XPSR, 0x01000000)  returns 0x00 (0000ms, 0805ms total)
T3064 001:460 JLINK_WriteReg(MSP, 0x20000800)  returns 0x00 (0000ms, 0805ms total)
T3064 001:460 JLINK_WriteReg(PSP, 0x20000800)  returns 0x00 (0000ms, 0805ms total)
T3064 001:460 JLINK_WriteReg(CFBP, 0x00000000)  returns 0x00 (0000ms, 0805ms total)
T3064 001:460 JLINK_SetBPEx(Addr = 0x20000000, Type = 0xFFFFFFF2)  returns 0x0000000A (0000ms, 0805ms total)
T3064 001:460 JLINK_Go() (0003ms, 0808ms total)
T3064 001:463 JLINK_IsHalted()  returns FALSE (0002ms, 0810ms total)
T3064 001:480 JLINK_IsHalted()  returns FALSE (0001ms, 0809ms total)
T3064 001:482 JLINK_IsHalted()  returns FALSE (0001ms, 0809ms total)
T3064 001:485 JLINK_IsHalted()  returns FALSE (0000ms, 0808ms total)
T3064 001:488 JLINK_IsHalted()  returns FALSE (0001ms, 0809ms total)
T3064 001:490 JLINK_IsHalted()  returns FALSE (0001ms, 0809ms total)
T3064 001:492 JLINK_IsHalted()  returns FALSE (0001ms, 0809ms total)
T3064 001:495 JLINK_IsHalted() -- CPU_ReadMem(2 bytes @ 0x20000000)  returns TRUE (0005ms, 0813ms total)
T3064 001:500 JLINK_ReadReg(R15 (PC))  returns 0x20000000 (0000ms, 0808ms total)
T3064 001:500 JLINK_ClrBPEx(BPHandle = 0x0000000A)  returns 0x00 (0000ms, 0808ms total)
T3064 001:500 JLINK_ReadReg(R0)  returns 0x00000000 (0000ms, 0808ms total)
T3064 001:500 JLINK_WriteMem(0x20000164, 0x0400 Bytes, ...) -- Data:  4F F0 20 44 63 6E 07 E0 B2 F5 80 7F 02 D1 37 4C ... -- CPU_WriteMem(1024 bytes @ 0x20000164)  returns 0x400 (0007ms, 0815ms total)
T3064 001:507 JLINK_WriteReg(R0, 0x08001800)  returns 0x00 (0000ms, 0815ms total)
T3064 001:507 JLINK_WriteReg(R1, 0x00000400)  returns 0x00 (0001ms, 0816ms total)
T3064 001:508 JLINK_WriteReg(R2, 0x20000164)  returns 0x00 (0000ms, 0816ms total)
T3064 001:508 JLINK_WriteReg(R3, 0x00000000)  returns 0x00 (0000ms, 0816ms total)
T3064 001:508 JLINK_WriteReg(R4, 0x00000000)  returns 0x00 (0000ms, 0816ms total)
T3064 001:508 JLINK_WriteReg(R5, 0x00000000)  returns 0x00 (0000ms, 0816ms total)
T3064 001:508 JLINK_WriteReg(R6, 0x00000000)  returns 0x00 (0000ms, 0816ms total)
T3064 001:508 JLINK_WriteReg(R7, 0x00000000)  returns 0x00 (0000ms, 0816ms total)
T3064 001:508 JLINK_WriteReg(R8, 0x00000000)  returns 0x00 (0000ms, 0816ms total)
T3064 001:508 JLINK_WriteReg(R9, 0x20000160)  returns 0x00 (0000ms, 0816ms total)
T3064 001:508 JLINK_WriteReg(R10, 0x00000000)  returns 0x00 (0000ms, 0816ms total)
T3064 001:508 JLINK_WriteReg(R11, 0x00000000)  returns 0x00 (0000ms, 0816ms total)
T3064 001:508 JLINK_WriteReg(R12, 0x00000000)  returns 0x00 (0000ms, 0816ms total)
T3064 001:508 JLINK_WriteReg(R13 (SP), 0x20000800)  returns 0x00 (0000ms, 0816ms total)
T3064 001:508 JLINK_WriteReg(R14, 0x20000001)  returns 0x00 (0000ms, 0816ms total)
T3064 001:508 JLINK_WriteReg(R15 (PC), 0x200000F4)  returns 0x00 (0000ms, 0816ms total)
T3064 001:508 JLINK_WriteReg(XPSR, 0x01000000)  returns 0x00 (0000ms, 0816ms total)
T3064 001:508 JLINK_WriteReg(MSP, 0x20000800)  returns 0x00 (0000ms, 0816ms total)
T3064 001:508 JLINK_WriteReg(PSP, 0x20000800)  returns 0x00 (0000ms, 0816ms total)
T3064 001:508 JLINK_WriteReg(CFBP, 0x00000000)  returns 0x00 (0000ms, 0816ms total)
T3064 001:508 JLINK_SetBPEx(Addr = 0x20000000, Type = 0xFFFFFFF2)  returns 0x0000000B (0000ms, 0816ms total)
T3064 001:508 JLINK_Go() (0003ms, 0819ms total)
T3064 001:511 JLINK_IsHalted()  returns FALSE (0001ms, 0820ms total)
T3064 001:515 JLINK_IsHalted()  returns FALSE (0000ms, 0819ms total)
T3064 001:519 JLINK_IsHalted() -- CPU_ReadMem(2 bytes @ 0x20000000)  returns TRUE (0043ms, 0862ms total)
T3064 001:562 JLINK_ReadReg(R15 (PC))  returns 0x20000000 (0000ms, 0819ms total)
T3064 001:562 JLINK_ClrBPEx(BPHandle = 0x0000000B)  returns 0x00 (0000ms, 0819ms total)
T3064 001:562 JLINK_ReadReg(R0)  returns 0x00000000 (0000ms, 0819ms total)
T3064 001:563 JLINK_WriteMem(0x20000164, 0x0400 Bytes, ...) -- Data:  04 4C 08 34 8D 10 44 F8 25 30 30 BD 00 14 01 40 ... -- CPU_WriteMem(1024 bytes @ 0x20000164)  returns 0x400 (0006ms, 0825ms total)
T3064 001:570 JLINK_WriteReg(R0, 0x08001C00)  returns 0x00 (0000ms, 0826ms total)
T3064 001:570 JLINK_WriteReg(R1, 0x00000400)  returns 0x00 (0000ms, 0826ms total)
T3064 001:570 JLINK_WriteReg(R2, 0x20000164)  returns 0x00 (0000ms, 0826ms total)
T3064 001:570 JLINK_WriteReg(R3, 0x00000000)  returns 0x00 (0000ms, 0826ms total)
T3064 001:570 JLINK_WriteReg(R4, 0x00000000)  returns 0x00 (0000ms, 0826ms total)
T3064 001:570 JLINK_WriteReg(R5, 0x00000000)  returns 0x00 (0000ms, 0826ms total)
T3064 001:570 JLINK_WriteReg(R6, 0x00000000)  returns 0x00 (0000ms, 0826ms total)
T3064 001:570 JLINK_WriteReg(R7, 0x00000000)  returns 0x00 (0000ms, 0826ms total)
T3064 001:570 JLINK_WriteReg(R8, 0x00000000)  returns 0x00 (0000ms, 0826ms total)
T3064 001:570 JLINK_WriteReg(R9, 0x20000160)  returns 0x00 (0000ms, 0826ms total)
T3064 001:570 JLINK_WriteReg(R10, 0x00000000)  returns 0x00 (0000ms, 0826ms total)
T3064 001:570 JLINK_WriteReg(R11, 0x00000000)  returns 0x00 (0000ms, 0826ms total)
T3064 001:570 JLINK_WriteReg(R12, 0x00000000)  returns 0x00 (0000ms, 0826ms total)
T3064 001:570 JLINK_WriteReg(R13 (SP), 0x20000800)  returns 0x00 (0000ms, 0826ms total)
T3064 001:570 JLINK_WriteReg(R14, 0x20000001)  returns 0x00 (0000ms, 0826ms total)
T3064 001:570 JLINK_WriteReg(R15 (PC), 0x200000F4)  returns 0x00 (0000ms, 0826ms total)
T3064 001:570 JLINK_WriteReg(XPSR, 0x01000000)  returns 0x00 (0000ms, 0826ms total)
T3064 001:570 JLINK_WriteReg(MSP, 0x20000800)  returns 0x00 (0000ms, 0826ms total)
T3064 001:570 JLINK_WriteReg(PSP, 0x20000800)  returns 0x00 (0000ms, 0826ms total)
T3064 001:570 JLINK_WriteReg(CFBP, 0x00000000)  returns 0x00 (0000ms, 0826ms total)
T3064 001:570 JLINK_SetBPEx(Addr = 0x20000000, Type = 0xFFFFFFF2)  returns 0x0000000C (0000ms, 0826ms total)
T3064 001:570 JLINK_Go() (0002ms, 0828ms total)
T3064 001:572 JLINK_IsHalted()  returns FALSE (0001ms, 0829ms total)
T3064 001:613 JLINK_IsHalted() -- CPU_ReadMem(2 bytes @ 0x20000000)  returns TRUE (0006ms, 0834ms total)
T3064 001:619 JLINK_ReadReg(R15 (PC))  returns 0x20000000 (0000ms, 0828ms total)
T3064 001:619 JLINK_ClrBPEx(BPHandle = 0x0000000C)  returns 0x00 (0000ms, 0828ms total)
T3064 001:619 JLINK_ReadReg(R0)  returns 0x00000000 (0000ms, 0828ms total)
T3064 001:619 JLINK_WriteMem(0x20000164, 0x0400 Bytes, ...) -- Data:  40 F0 01 00 DC 49 08 60 08 46 40 68 DB 49 08 40 ... -- CPU_WriteMem(1024 bytes @ 0x20000164)  returns 0x400 (0007ms, 0835ms total)
T3064 001:626 JLINK_WriteReg(R0, 0x08002000)  returns 0x00 (0000ms, 0835ms total)
T3064 001:626 JLINK_WriteReg(R1, 0x00000400)  returns 0x00 (0000ms, 0835ms total)
T3064 001:626 JLINK_WriteReg(R2, 0x20000164)  returns 0x00 (0000ms, 0835ms total)
T3064 001:627 JLINK_WriteReg(R3, 0x00000000)  returns 0x00 (0000ms, 0836ms total)
T3064 001:627 JLINK_WriteReg(R4, 0x00000000)  returns 0x00 (0000ms, 0836ms total)
T3064 001:627 JLINK_WriteReg(R5, 0x00000000)  returns 0x00 (0000ms, 0836ms total)
T3064 001:627 JLINK_WriteReg(R6, 0x00000000)  returns 0x00 (0000ms, 0836ms total)
T3064 001:627 JLINK_WriteReg(R7, 0x00000000)  returns 0x00 (0000ms, 0836ms total)
T3064 001:627 JLINK_WriteReg(R8, 0x00000000)  returns 0x00 (0000ms, 0836ms total)
T3064 001:627 JLINK_WriteReg(R9, 0x20000160)  returns 0x00 (0000ms, 0836ms total)
T3064 001:627 JLINK_WriteReg(R10, 0x00000000)  returns 0x00 (0000ms, 0836ms total)
T3064 001:627 JLINK_WriteReg(R11, 0x00000000)  returns 0x00 (0000ms, 0836ms total)
T3064 001:627 JLINK_WriteReg(R12, 0x00000000)  returns 0x00 (0000ms, 0836ms total)
T3064 001:627 JLINK_WriteReg(R13 (SP), 0x20000800)  returns 0x00 (0000ms, 0836ms total)
T3064 001:627 JLINK_WriteReg(R14, 0x20000001)  returns 0x00 (0000ms, 0836ms total)
T3064 001:627 JLINK_WriteReg(R15 (PC), 0x200000F4)  returns 0x00 (0000ms, 0836ms total)
T3064 001:627 JLINK_WriteReg(XPSR, 0x01000000)  returns 0x00 (0000ms, 0836ms total)
T3064 001:627 JLINK_WriteReg(MSP, 0x20000800)  returns 0x00 (0000ms, 0836ms total)
T3064 001:627 JLINK_WriteReg(PSP, 0x20000800)  returns 0x00 (0000ms, 0836ms total)
T3064 001:627 JLINK_WriteReg(CFBP, 0x00000000)  returns 0x00 (0000ms, 0836ms total)
T3064 001:627 JLINK_SetBPEx(Addr = 0x20000000, Type = 0xFFFFFFF2)  returns 0x0000000D (0000ms, 0836ms total)
T3064 001:627 JLINK_Go() (0003ms, 0839ms total)
T3064 001:630 JLINK_IsHalted()  returns FALSE (0001ms, 0840ms total)
T3064 001:633 JLINK_IsHalted()  returns FALSE (0001ms, 0840ms total)
T3064 001:635 JLINK_IsHalted()  returns FALSE (0001ms, 0840ms total)
T3064 001:695 JLINK_IsHalted() -- CPU_ReadMem(2 bytes @ 0x20000000)  returns TRUE (0005ms, 0844ms total)
T3064 001:700 JLINK_ReadReg(R15 (PC))  returns 0x20000000 (0000ms, 0839ms total)
T3064 001:700 JLINK_ClrBPEx(BPHandle = 0x0000000D)  returns 0x00 (0000ms, 0839ms total)
T3064 001:700 JLINK_ReadReg(R0)  returns 0x00000000 (0000ms, 0839ms total)
T3064 001:701 JLINK_WriteMem(0x20000164, 0x0400 Bytes, ...) -- Data:  00 BF 10 BD 10 B5 00 22 02 88 02 F4 41 52 0B 88 ... -- CPU_WriteMem(1024 bytes @ 0x20000164)  returns 0x400 (0007ms, 0846ms total)
T3064 001:708 JLINK_WriteReg(R0, 0x08002400)  returns 0x00 (0000ms, 0846ms total)
T3064 001:708 JLINK_WriteReg(R1, 0x00000400)  returns 0x00 (0000ms, 0846ms total)
T3064 001:708 JLINK_WriteReg(R2, 0x20000164)  returns 0x00 (0000ms, 0846ms total)
T3064 001:708 JLINK_WriteReg(R3, 0x00000000)  returns 0x00 (0000ms, 0846ms total)
T3064 001:708 JLINK_WriteReg(R4, 0x00000000)  returns 0x00 (0000ms, 0846ms total)
T3064 001:708 JLINK_WriteReg(R5, 0x00000000)  returns 0x00 (0000ms, 0846ms total)
T3064 001:708 JLINK_WriteReg(R6, 0x00000000)  returns 0x00 (0000ms, 0846ms total)
T3064 001:708 JLINK_WriteReg(R7, 0x00000000)  returns 0x00 (0000ms, 0846ms total)
T3064 001:708 JLINK_WriteReg(R8, 0x00000000)  returns 0x00 (0000ms, 0846ms total)
T3064 001:708 JLINK_WriteReg(R9, 0x20000160)  returns 0x00 (0000ms, 0846ms total)
T3064 001:708 JLINK_WriteReg(R10, 0x00000000)  returns 0x00 (0000ms, 0846ms total)
T3064 001:708 JLINK_WriteReg(R11, 0x00000000)  returns 0x00 (0000ms, 0846ms total)
T3064 001:708 JLINK_WriteReg(R12, 0x00000000)  returns 0x00 (0000ms, 0846ms total)
T3064 001:708 JLINK_WriteReg(R13 (SP), 0x20000800)  returns 0x00 (0000ms, 0846ms total)
T3064 001:708 JLINK_WriteReg(R14, 0x20000001)  returns 0x00 (0000ms, 0846ms total)
T3064 001:708 JLINK_WriteReg(R15 (PC), 0x200000F4)  returns 0x00 (0000ms, 0846ms total)
T3064 001:708 JLINK_WriteReg(XPSR, 0x01000000)  returns 0x00 (0000ms, 0846ms total)
T3064 001:708 JLINK_WriteReg(MSP, 0x20000800)  returns 0x00 (0000ms, 0846ms total)
T3064 001:708 JLINK_WriteReg(PSP, 0x20000800)  returns 0x00 (0000ms, 0846ms total)
T3064 001:708 JLINK_WriteReg(CFBP, 0x00000000)  returns 0x00 (0000ms, 0846ms total)
T3064 001:708 JLINK_SetBPEx(Addr = 0x20000000, Type = 0xFFFFFFF2)  returns 0x0000000E (0000ms, 0846ms total)
T3064 001:708 JLINK_Go() (0003ms, 0849ms total)
T3064 001:711 JLINK_IsHalted()  returns FALSE (0001ms, 0850ms total)
T3064 001:716 JLINK_IsHalted()  returns FALSE (0002ms, 0851ms total)
T3064 001:720 JLINK_IsHalted()  returns FALSE (0002ms, 0851ms total)
T3064 001:723 JLINK_IsHalted()  returns FALSE (0002ms, 0851ms total)
T3064 001:726 JLINK_IsHalted()  returns FALSE (0001ms, 0850ms total)
T3064 001:730 JLINK_IsHalted()  returns FALSE (0002ms, 0851ms total)
T3064 001:733 JLINK_IsHalted()  returns FALSE (0001ms, 0850ms total)
T3064 001:736 JLINK_IsHalted()  returns FALSE (0001ms, 0850ms total)
T3064 001:738 JLINK_IsHalted()  returns FALSE (0001ms, 0850ms total)
T3064 001:740 JLINK_IsHalted()  returns FALSE (0002ms, 0851ms total)
T3064 001:743 JLINK_IsHalted() -- CPU_ReadMem(2 bytes @ 0x20000000)  returns TRUE (0005ms, 0854ms total)
T3064 001:748 JLINK_ReadReg(R15 (PC))  returns 0x20000000 (0000ms, 0849ms total)
T3064 001:748 JLINK_ClrBPEx(BPHandle = 0x0000000E)  returns 0x00 (0000ms, 0849ms total)
T3064 001:749 JLINK_ReadReg(R0)  returns 0x00000000 (0000ms, 0850ms total)
T3064 001:749 JLINK_WriteMem(0x20000164, 0x0400 Bytes, ...) -- Data:  00 21 4F F4 80 20 FF F7 8C FD 14 E0 01 21 C8 04 ... -- CPU_WriteMem(1024 bytes @ 0x20000164)  returns 0x400 (0007ms, 0857ms total)
T3064 001:757 JLINK_WriteReg(R0, 0x08002800)  returns 0x00 (0000ms, 0857ms total)
T3064 001:757 JLINK_WriteReg(R1, 0x00000400)  returns 0x00 (0000ms, 0857ms total)
T3064 001:757 JLINK_WriteReg(R2, 0x20000164)  returns 0x00 (0000ms, 0857ms total)
T3064 001:757 JLINK_WriteReg(R3, 0x00000000)  returns 0x00 (0000ms, 0857ms total)
T3064 001:757 JLINK_WriteReg(R4, 0x00000000)  returns 0x00 (0000ms, 0857ms total)
T3064 001:757 JLINK_WriteReg(R5, 0x00000000)  returns 0x00 (0000ms, 0857ms total)
T3064 001:757 JLINK_WriteReg(R6, 0x00000000)  returns 0x00 (0000ms, 0857ms total)
T3064 001:757 JLINK_WriteReg(R7, 0x00000000)  returns 0x00 (0000ms, 0857ms total)
T3064 001:757 JLINK_WriteReg(R8, 0x00000000)  returns 0x00 (0000ms, 0857ms total)
T3064 001:757 JLINK_WriteReg(R9, 0x20000160)  returns 0x00 (0000ms, 0857ms total)
T3064 001:757 JLINK_WriteReg(R10, 0x00000000)  returns 0x00 (0000ms, 0857ms total)
T3064 001:757 JLINK_WriteReg(R11, 0x00000000)  returns 0x00 (0000ms, 0857ms total)
T3064 001:757 JLINK_WriteReg(R12, 0x00000000)  returns 0x00 (0000ms, 0857ms total)
T3064 001:757 JLINK_WriteReg(R13 (SP), 0x20000800)  returns 0x00 (0000ms, 0857ms total)
T3064 001:757 JLINK_WriteReg(R14, 0x20000001)  returns 0x00 (0000ms, 0857ms total)
T3064 001:757 JLINK_WriteReg(R15 (PC), 0x200000F4)  returns 0x00 (0000ms, 0857ms total)
T3064 001:757 JLINK_WriteReg(XPSR, 0x01000000)  returns 0x00 (0000ms, 0857ms total)
T3064 001:757 JLINK_WriteReg(MSP, 0x20000800)  returns 0x00 (0001ms, 0858ms total)
T3064 001:758 JLINK_WriteReg(PSP, 0x20000800)  returns 0x00 (0000ms, 0858ms total)
T3064 001:758 JLINK_WriteReg(CFBP, 0x00000000)  returns 0x00 (0000ms, 0858ms total)
T3064 001:758 JLINK_SetBPEx(Addr = 0x20000000, Type = 0xFFFFFFF2)  returns 0x0000000F (0000ms, 0858ms total)
T3064 001:758 JLINK_Go() (0003ms, 0861ms total)
T3064 001:761 JLINK_IsHalted()  returns FALSE (0000ms, 0861ms total)
T3064 001:787 JLINK_IsHalted()  returns FALSE (0001ms, 0862ms total)
T3064 001:790 JLINK_IsHalted()  returns FALSE (0001ms, 0862ms total)
T3064 001:792 JLINK_IsHalted() -- CPU_ReadMem(2 bytes @ 0x20000000)  returns TRUE (0006ms, 0867ms total)
T3064 001:798 JLINK_ReadReg(R15 (PC))  returns 0x20000000 (0000ms, 0861ms total)
T3064 001:798 JLINK_ClrBPEx(BPHandle = 0x0000000F)  returns 0x00 (0000ms, 0861ms total)
T3064 001:798 JLINK_ReadReg(R0)  returns 0x00000000 (0000ms, 0861ms total)
T3064 001:798 JLINK_WriteMem(0x20000164, 0x0400 Bytes, ...) -- Data:  01 22 40 F2 25 51 F1 48 FF F7 91 FE 01 21 EF 48 ... -- CPU_WriteMem(1024 bytes @ 0x20000164)  returns 0x400 (0007ms, 0868ms total)
T3064 001:805 JLINK_WriteReg(R0, 0x08002C00)  returns 0x00 (0000ms, 0868ms total)
T3064 001:805 JLINK_WriteReg(R1, 0x00000400)  returns 0x00 (0000ms, 0868ms total)
T3064 001:805 JLINK_WriteReg(R2, 0x20000164)  returns 0x00 (0000ms, 0868ms total)
T3064 001:805 JLINK_WriteReg(R3, 0x00000000)  returns 0x00 (0000ms, 0868ms total)
T3064 001:805 JLINK_WriteReg(R4, 0x00000000)  returns 0x00 (0000ms, 0868ms total)
T3064 001:805 JLINK_WriteReg(R5, 0x00000000)  returns 0x00 (0001ms, 0869ms total)
T3064 001:806 JLINK_WriteReg(R6, 0x00000000)  returns 0x00 (0000ms, 0869ms total)
T3064 001:806 JLINK_WriteReg(R7, 0x00000000)  returns 0x00 (0000ms, 0869ms total)
T3064 001:806 JLINK_WriteReg(R8, 0x00000000)  returns 0x00 (0000ms, 0869ms total)
T3064 001:806 JLINK_WriteReg(R9, 0x20000160)  returns 0x00 (0000ms, 0869ms total)
T3064 001:806 JLINK_WriteReg(R10, 0x00000000)  returns 0x00 (0000ms, 0869ms total)
T3064 001:806 JLINK_WriteReg(R11, 0x00000000)  returns 0x00 (0000ms, 0869ms total)
T3064 001:806 JLINK_WriteReg(R12, 0x00000000)  returns 0x00 (0000ms, 0869ms total)
T3064 001:806 JLINK_WriteReg(R13 (SP), 0x20000800)  returns 0x00 (0000ms, 0869ms total)
T3064 001:806 JLINK_WriteReg(R14, 0x20000001)  returns 0x00 (0000ms, 0869ms total)
T3064 001:806 JLINK_WriteReg(R15 (PC), 0x200000F4)  returns 0x00 (0000ms, 0869ms total)
T3064 001:806 JLINK_WriteReg(XPSR, 0x01000000)  returns 0x00 (0000ms, 0869ms total)
T3064 001:806 JLINK_WriteReg(MSP, 0x20000800)  returns 0x00 (0000ms, 0869ms total)
T3064 001:806 JLINK_WriteReg(PSP, 0x20000800)  returns 0x00 (0000ms, 0869ms total)
T3064 001:806 JLINK_WriteReg(CFBP, 0x00000000)  returns 0x00 (0000ms, 0869ms total)
T3064 001:806 JLINK_SetBPEx(Addr = 0x20000000, Type = 0xFFFFFFF2)  returns 0x00000010 (0000ms, 0869ms total)
T3064 001:806 JLINK_Go() (0003ms, 0872ms total)
T3064 001:809 JLINK_IsHalted()  returns FALSE (0001ms, 0873ms total)
T3064 001:822 JLINK_IsHalted()  returns FALSE (0001ms, 0873ms total)
T3064 001:824 JLINK_IsHalted()  returns FALSE (0001ms, 0873ms total)
T3064 001:826 JLINK_IsHalted()  returns FALSE (0001ms, 0873ms total)
T3064 001:828 JLINK_IsHalted()  returns FALSE (0000ms, 0872ms total)
T3064 001:829 JLINK_IsHalted()  returns FALSE (0000ms, 0872ms total)
T3064 001:830 JLINK_IsHalted()  returns FALSE (0001ms, 0873ms total)
T3064 001:832 JLINK_IsHalted()  returns FALSE (0002ms, 0874ms total)
T3064 001:835 JLINK_IsHalted()  returns FALSE (0001ms, 0873ms total)
T3064 001:837 JLINK_IsHalted()  returns FALSE (0000ms, 0872ms total)
T3064 001:838 JLINK_IsHalted()  returns FALSE (0001ms, 0873ms total)
T3064 001:840 JLINK_IsHalted() -- CPU_ReadMem(2 bytes @ 0x20000000)  returns TRUE (0004ms, 0876ms total)
T3064 001:844 JLINK_ReadReg(R15 (PC))  returns 0x20000000 (0000ms, 0872ms total)
T3064 001:844 JLINK_ClrBPEx(BPHandle = 0x00000010)  returns 0x00 (0000ms, 0872ms total)
T3064 001:844 JLINK_ReadReg(R0)  returns 0x00000000 (0000ms, 0872ms total)
T3064 001:845 JLINK_WriteMem(0x20000164, 0x0400 Bytes, ...) -- Data:  F6 49 89 89 08 12 FF F7 43 FE F4 49 89 89 C8 B2 ... -- CPU_WriteMem(1024 bytes @ 0x20000164)  returns 0x400 (0006ms, 0878ms total)
T3064 001:851 JLINK_WriteReg(R0, 0x08003000)  returns 0x00 (0000ms, 0878ms total)
T3064 001:851 JLINK_WriteReg(R1, 0x00000400)  returns 0x00 (0000ms, 0878ms total)
T3064 001:851 JLINK_WriteReg(R2, 0x20000164)  returns 0x00 (0000ms, 0878ms total)
T3064 001:851 JLINK_WriteReg(R3, 0x00000000)  returns 0x00 (0000ms, 0878ms total)
T3064 001:851 JLINK_WriteReg(R4, 0x00000000)  returns 0x00 (0001ms, 0879ms total)
T3064 001:852 JLINK_WriteReg(R5, 0x00000000)  returns 0x00 (0000ms, 0879ms total)
T3064 001:852 JLINK_WriteReg(R6, 0x00000000)  returns 0x00 (0000ms, 0879ms total)
T3064 001:852 JLINK_WriteReg(R7, 0x00000000)  returns 0x00 (0000ms, 0879ms total)
